# Hz S MA R 50

 1000000000  2.2434722395719451e-02  1.2333128000000001e+02  9.4699473398388312e-01 -1.4770554999999999e+02  9.4548392407887316e-01 -1.4769141999999999e+02  1.7285022531757139e-02  9.4398833999999994e+01
 1001000000  2.2038914497025337e-02  1.2221329000000000e+02  9.4613857291483339e-01 -1.4927109999999999e+02  9.4555011546545120e-01 -1.4930828999999997e+02  1.7308351248174481e-02  9.2407684000000032e+01
 1002000000  2.2687941829509450e-02  1.2008749000000000e+02  9.4619139586599088e-01 -1.5088337999999999e+02  9.4634048966147433e-01 -1.5085738000000001e+02  1.8297303843704277e-02  8.9455207999999999e+01
 1003000000  2.3234875514423197e-02  1.1846858000000000e+02  9.4633910597875082e-01 -1.5246788000000001e+02  9.4641865140890835e-01 -1.5245042000000001e+02  1.8514766956537358e-02  8.8385970999999984e+01
 1004000000  2.3770564750981157e-02  1.1749023000000001e+02  9.4553019529604576e-01 -1.5401813999999999e+02  9.4593954276381920e-01 -1.5405994999999999e+02  1.9367216168997975e-02  8.6307426000000007e+01
 1005000000  2.4068263083614094e-02  1.1656672999999999e+02  9.4541829570213676e-01 -1.5565616000000000e+02  9.4522226822033528e-01 -1.5567295999999999e+02  1.9078553753631954e-02  8.1121048000000002e+01
 1006000000  2.4751330542140310e-02  1.1350288000000002e+02  9.4554885595053628e-01 -1.5725954999999999e+02  9.4548373576344513e-01 -1.5718308999999999e+02  1.9328724680779303e-02  7.9565269000000001e+01
 1007000000  2.4982528987512759e-02  1.1414207000000000e+02  9.4623788363547823e-01 -1.5877820000000000e+02  9.4524172048441235e-01 -1.5882460000000000e+02  2.0539127931848450e-02  7.7759460000000004e+01
 1008000000  2.5299704578334588e-02  1.1262491000000000e+02  9.4578571889209639e-01 -1.6038381999999999e+02  9.4502685802487929e-01 -1.6038794000000001e+02  2.0700476857145989e-02  7.6387489000000002e+01
 1009000000  2.5392113461150893e-02  1.1193674000000000e+02  9.4576372385167229e-01 -1.6195679000000001e+02  9.4537173500467930e-01 -1.6199590000000001e+02  2.2050165324214565e-02  7.4733742000000007e+01
 1010000000  2.6684744567927791e-02  1.1044695000000003e+02  9.4555786962923816e-01 -1.6357366999999999e+02  9.4542586374639503e-01 -1.6357634999999999e+02  2.1887310550760809e-02  7.1945290000000000e+01
 1011000000  2.6624376739772231e-02  1.1110357999999999e+02  9.4548688923541446e-01 -1.6515140000000000e+02  9.4464844606862541e-01 -1.6521771000000001e+02  2.2596704170992570e-02  7.1660210000000006e+01
 1012000000  2.6892380657648957e-02  1.0791776000000002e+02  9.4570208710948667e-01 -1.6670348000000001e+02  9.4476078316335732e-01 -1.6677458000000001e+02  2.2777465630897720e-02  6.9302138999999983e+01
 1013000000  2.6573530032533699e-02  1.0668871000000001e+02  9.4535042438399353e-01 -1.6831511000000000e+02  9.4571636111991564e-01 -1.6830472000000000e+02  2.3293205060972828e-02  6.7652748000000003e+01
 1014000000  2.7081848234939740e-02  1.0440768000000000e+02  9.4385160246359190e-01 -1.6988771000000000e+02  9.4537536155854329e-01 -1.6990267999999998e+02  2.3302957870011552e-02  6.4948006000000007e+01
 1015000000  2.7609494166270048e-02  1.0332113999999999e+02  9.4558191632363020e-01 -1.7151396000000000e+02  9.4600516593722295e-01 -1.7150986000000000e+02  2.4003838713828104e-02  6.4508460999999983e+01
 1016000000  2.7774560790090077e-02  1.0225790000000001e+02  9.4480276916372508e-01 -1.7304620000000003e+02  9.4497968124336718e-01 -1.7308842000000001e+02  2.4528811175336677e-02  6.2382835000000000e+01
 1017000000  2.8290071819888633e-02  1.0006342000000002e+02  9.4469113076383171e-01 -1.7466368000000000e+02  9.4544319874715099e-01 -1.7467346000000001e+02  2.5061785003464863e-02  5.9877879999999990e+01
 1018000000  2.8080177582614940e-02  1.0027351000000000e+02  9.4530130730089257e-01 -1.7627399999999997e+02  9.4461342598198494e-01 -1.7627896000000001e+02  2.5473965130519492e-02  5.6566009999999999e+01
 1019000000  2.8093829992741948e-02  9.8373512000000005e+01  9.4446181739455737e-01 -1.7785432000000000e+02  9.4469059239413555e-01 -1.7785947999999999e+02  2.5335842465864074e-02  5.5844360000000002e+01
 1020000000  2.8113683416070182e-02  9.7648360999999994e+01  9.4522945490108967e-01 -1.7943405000000001e+02  9.4514971453454810e-01 -1.7945830000000001e+02  2.5282510716665887e-02  5.3593983000000001e+01
 1021000000  2.8794646417493411e-02  9.6276695000000004e+01  9.4576230616908952e-01  1.7902327000000002e+02  9.4487276049312008e-01  1.7899235999999996e+02  2.6093623996250585e-02  5.2581333000000001e+01
 1022000000  2.8743824331192498e-02  9.5114791999999980e+01  9.4548764467693003e-01  1.7740875000000000e+02  9.4491477431519877e-01  1.7741603000000003e+02  2.6191396186067858e-02  5.1591037999999990e+01
 1023000000  2.9277645638145222e-02  9.3814728000000002e+01  9.4572193903928581e-01  1.7582039000000000e+02  9.4470251817049267e-01  1.7582529999999997e+02  2.6923684951411841e-02  4.7657313999999992e+01
 1024000000  2.8989701930415251e-02  9.2682884000000001e+01  9.4527690751840621e-01  1.7425801000000001e+02  9.4486582345877368e-01  1.7420093000000000e+02  2.6370708614764371e-02  4.5622096999999997e+01
 1025000000  2.9370622409449751e-02  9.0068520000000007e+01  9.4535515338475073e-01  1.7268901000000002e+02  9.4468422007794950e-01  1.7260005000000001e+02  2.7081605038817558e-02  4.2331584999999997e+01
 1026000000  2.9314956224694717e-02  8.8914833000000002e+01  9.4493871109540784e-01  1.7110661000000002e+02  9.4453915628658480e-01  1.7101248000000001e+02  2.7203422709355978e-02  4.2263790000000000e+01
 1027000000  2.9423531714172703e-02  8.8032096999999993e+01  9.4484733727785797e-01  1.6951030000000000e+02  9.4494713148585197e-01  1.6943707000000001e+02  2.7128107640960956e-02  4.1735455000000009e+01
 1028000000  2.9319921283439552e-02  8.6576462000000006e+01  9.4498992976969964e-01  1.6796862999999999e+02  9.4525726517162101e-01  1.6783417000000000e+02  2.7635091062685743e-02  3.8249844000000003e+01
 1029000000  2.9544167032457436e-02  8.6074005000000000e+01  9.4524878433991710e-01  1.6635410999999999e+02  9.4468248643254549e-01  1.6629926000000000e+02  2.8199665057355841e-02  3.7851787999999999e+01
 1030000000  2.9032487652131948e-02  8.4570014999999998e+01  9.4537129311461321e-01  1.6472866999999999e+02  9.4492653756280875e-01  1.6471860999999998e+02  2.8312945306379629e-02  3.6310752999999998e+01
 1031000000  2.8744946190553861e-02  8.2175278000000006e+01  9.4552956609593641e-01  1.6320305999999999e+02  9.4548509207077658e-01  1.6312643000000000e+02  2.8497558247094410e-02  3.3289692000000009e+01
 1032000000  2.9093816812619900e-02  8.0861869999999996e+01  9.4433779892362135e-01  1.6160620000000000e+02  9.4469598915636033e-01  1.6154897000000000e+02  2.8757574264427131e-02  3.1590733999999998e+01
 1033000000  2.9305996944992863e-02  8.0393912999999998e+01  9.4483122280982135e-01  1.6002357000000001e+02  9.4467500808394012e-01  1.5998437999999999e+02  2.7612816066301463e-02  3.0608543000000001e+01
 1034000000  2.8677114476823251e-02  7.9284042000000014e+01  9.4475147688180727e-01  1.5839342000000002e+02  9.4507069465737026e-01  1.5834100000000001e+02  2.8302467476381606e-02  2.9260270999999992e+01
 1035000000  2.8646634040321358e-02  7.7198509000000001e+01  9.4472712718403917e-01  1.5686396999999997e+02  9.4439886508256077e-01  1.5678778000000000e+02  2.8638231801563992e-02  2.6112542999999995e+01
 1036000000  2.8708146248418887e-02  7.6699173000000002e+01  9.4423304779117534e-01  1.5526244000000000e+02  9.4477409665678891e-01  1.5520265000000001e+02  2.8203713866189913e-02  2.5469992000000008e+01
 1037000000  2.9048198255639288e-02  7.5530708000000018e+01  9.4447465910721828e-01  1.5368792999999999e+02  9.4457837456903015e-01  1.5361417000000000e+02  2.8626190033904132e-02  2.3318259999999999e+01
 1038000000  2.8245515154235547e-02  7.3241089000000002e+01  9.4559209735292737e-01  1.5207727000000000e+02  9.4418415834003755e-01  1.5206340000000000e+02  2.8458804352554646e-02  2.1991662999999999e+01
 1039000000  2.8601828616134143e-02  7.2600227000000004e+01  9.4503439682342538e-01  1.5049628999999999e+02  9.4403118617183313e-01  1.5042024000000001e+02  2.8424131258853923e-02  2.1032488000000001e+01
 1040000000  2.8891311049446769e-02  7.0822693000000001e+01  9.4512458527519982e-01  1.4891074000000000e+02  9.4533147814363716e-01  1.4885165000000003e+02  2.8241518870170658e-02  1.8248701000000004e+01
 1041000000  2.8286652160960012e-02  7.0547348000000000e+01  9.4452514580206226e-01  1.4728984000000000e+02  9.4468721861769245e-01  1.4724348000000001e+02  2.8697304107416281e-02  1.6405338000000000e+01
 1042000000  2.8063956595856934e-02  6.7718322999999998e+01  9.4477160362560508e-01  1.4569544999999999e+02  9.4472617983500584e-01  1.4568656999999999e+02  2.7941257648054909e-02  1.6054462000000004e+01
 1043000000  2.7746866843321717e-02  6.7513107000000005e+01  9.4455379552929719e-01  1.4411786000000001e+02  9.4433849256326241e-01  1.4408340000000004e+02  2.7604910918308877e-02  1.3252871999999998e+01
 1044000000  2.7904847278988610e-02  6.7088570000000004e+01  9.4477882603768715e-01  1.4259575000000001e+02  9.4418267454227223e-01  1.4248668000000001e+02  2.8555058221913378e-02  1.2769082000000003e+01
 1045000000  2.7212754268723161e-02  6.4100616000000002e+01  9.4491105270784281e-01  1.4100269000000000e+02  9.4481620616567574e-01  1.4087682000000001e+02  2.7449680888477861e-02  8.9971503999999989e+00
 1046000000  2.7286102109064240e-02  6.2778617999999994e+01  9.4471286701680501e-01  1.3936702000000000e+02  9.4488660751858167e-01  1.3933805999999998e+02  2.7779354502783151e-02  7.1641573999999988e+00
 1047000000  2.5769183019938652e-02  6.0897441999999998e+01  9.4506448189603665e-01  1.3781683000000001e+02  9.4457143208364980e-01  1.3772255000000001e+02  2.7243456021179977e-02  5.8748031000000003e+00
 1048000000  2.5379353212744135e-02  5.9454295999999992e+01  9.4429920379037602e-01  1.3622621000000001e+02  9.4492723054700511e-01  1.3617666999999997e+02  2.7413503955688576e-02  5.0929847000000006e+00
 1049000000  2.5447759399380956e-02  6.0658974000000001e+01  9.4457673464150216e-01  1.3463633999999999e+02  9.4473254917123872e-01  1.3455459999999997e+02  2.7155018312284920e-02  2.8429470000000010e+00
 1050000000  2.5662682448471960e-02  5.7348022000000000e+01  9.4422822113070448e-01  1.3305643000000001e+02  9.4453940857290519e-01  1.3297873999999999e+02  2.6903597069359374e-02 -3.0749842999999993e-01
 1051000000  2.4711860859571659e-02  5.5314158999999997e+01  9.4395772082090212e-01  1.3145221000000001e+02  9.4410871697242327e-01  1.3138820999999999e+02  2.6334089060977322e-02 -3.0323774000000009e-01
 1052000000  2.3533523189110100e-02  5.4152081000000003e+01  9.4503963017110115e-01  1.2988865999999999e+02  9.4374272539577442e-01  1.2983598000000001e+02  2.6441716832070833e-02 -2.4866950999999999e+00
 1053000000  2.2805032736249918e-02  5.3449511999999984e+01  9.4512843176916495e-01  1.2827179000000001e+02  9.4379802022020765e-01  1.2823428000000001e+02  2.5847295027578397e-02 -3.1441215999999996e+00
 1054000000  2.3623394362028382e-02  5.2456116000000002e+01  9.4431472971616359e-01  1.2673461000000002e+02  9.4420754830125231e-01  1.2663808000000002e+02  2.5719250002404694e-02 -5.1748567000000003e+00
 1055000000  2.2998568231751285e-02  5.2648665999999999e+01  9.4450419462157487e-01  1.2510017000000001e+02  9.4403936153857826e-01  1.2510184000000000e+02  2.5042806625262513e-02 -9.2002831000000018e+00
 1056000000  2.2151401047870382e-02  5.0394614999999995e+01  9.4482163301518252e-01  1.2353288000000001e+02  9.4375778908425212e-01  1.2347873000000000e+02  2.5156079004955714e-02 -9.6214752000000008e+00
 1057000000  2.1956448831294380e-02  4.8749622000000002e+01  9.4422465441840286e-01  1.2191651000000002e+02  9.4414836413574965e-01  1.2186414000000002e+02  2.3852615089038139e-02 -1.0816255000000000e+01
 1058000000  2.1169763193639262e-02  4.7468623999999998e+01  9.4423052466220736e-01  1.2035043000000000e+02  9.4470573647009026e-01  1.2030962000000002e+02  2.4274000133882721e-02 -1.2456820000000002e+01
 1059000000  2.0751978079925133e-02  4.5835380999999998e+01  9.4401186206872145e-01  1.1876080000000000e+02  9.4446980185294804e-01  1.1872975000000000e+02  2.4130348821922155e-02 -1.4596268000000000e+01
 1060000000  2.0498576357289362e-02  4.5035685999999998e+01  9.4422219218811554e-01  1.1716566000000003e+02  9.4432104191891253e-01  1.1716203000000003e+02  2.3804433469564748e-02 -1.6050181999999996e+01
 1061000000  1.8984595579946469e-02  4.3611621999999990e+01  9.4343617334283214e-01  1.1559015000000001e+02  9.4477781772473257e-01  1.1553055999999999e+02  2.2920764552215728e-02 -1.7845289000000001e+01
 1062000000  1.8624685589946899e-02  4.0713653999999998e+01  9.4376167456396898e-01  1.1400550000000003e+02  9.4490237699198054e-01  1.1398602000000000e+02  2.2280572712639474e-02 -2.0600110999999991e+01
 1063000000  1.8701233380698443e-02  4.2297905000000000e+01  9.4469791207304288e-01  1.1244486999999999e+02  9.4477668323798070e-01  1.1234119000000001e+02  2.2492356065730558e-02 -2.3080063000000003e+01
 1064000000  1.7910379989157937e-02  4.0597503999999994e+01  9.4419334271962962e-01  1.1083983000000002e+02  9.4386938238714624e-01  1.1080226999999999e+02  2.1903264618192624e-02 -2.4350491000000005e+01
 1065000000  1.7410887125392512e-02  3.8032578000000008e+01  9.4406818347735566e-01  1.0926711000000002e+02  9.4436033160040189e-01  1.0917823000000000e+02  2.0712363055494031e-02 -2.4644366999999995e+01
 1066000000  1.7056088861177390e-02  3.8491299000000005e+01  9.4508365236755087e-01  1.0764998000000000e+02  9.4413242246070572e-01  1.0758006000000000e+02  1.9467545571159268e-02 -2.8675845999999996e+01
 1067000000  1.5549171369384879e-02  3.7800888000000000e+01  9.4421152368479599e-01  1.0610376000000002e+02  9.4398300924539047e-01  1.0605051000000000e+02  1.9730511764173758e-02 -2.9810794999999999e+01
 1068000000  1.4688572797782970e-02  3.7881321000000007e+01  9.4429257428370339e-01  1.0446013000000001e+02  9.4374600887691018e-01  1.0441983000000003e+02  1.9619527771449274e-02 -2.9891760000000001e+01
 1069000000  1.4266551221839925e-02  3.6893532000000000e+01  9.4388813306052888e-01  1.0286339000000000e+02  9.4419173172363668e-01  1.0286518000000001e+02  1.8455161498597668e-02 -3.3712269000000006e+01
 1070000000  1.4217225439883546e-02  3.1616184000000001e+01  9.4430687268085156e-01  1.0133077000000002e+02  9.4416278970317369e-01  1.0127437000000000e+02  1.7599200943908752e-02 -3.5223030000000001e+01
 1071000000  1.2664473803778128e-02  3.3513168000000007e+01  9.4419684735198539e-01  9.9728049999999996e+01  9.4398474595435100e-01  9.9727401999999984e+01  1.7225577862453455e-02 -3.6206169000000003e+01
 1072000000  1.2063485318429849e-02  3.3908112000000003e+01  9.4396551952531671e-01  9.8154403999999985e+01  9.4358020627084038e-01  9.8116660999999993e+01  1.7008759877367500e-02 -3.7403385000000007e+01
 1073000000  1.1786891885179212e-02  3.6993450000000010e+01  9.4482090747546998e-01  9.6487373000000019e+01  9.4431157363061158e-01  9.6516098000000014e+01  1.5937927612568629e-02 -4.0012596000000009e+01
 1074000000  1.1222781304147807e-02  3.5621735000000001e+01  9.4408450666259114e-01  9.5002860999999996e+01  9.4444957389207707e-01  9.4949150000000003e+01  1.5045218523164009e-02 -4.2928607999999997e+01
 1075000000  9.8692136332415754e-03  3.1379380999999995e+01  9.4375343097712727e-01  9.3359451000000021e+01  9.4463557589179425e-01  9.3358436999999995e+01  1.4325846716854013e-02 -4.3205398999999993e+01
 1076000000  8.9518954214472691e-03  3.1537127999999989e+01  9.4350158917500326e-01  9.1784003999999996e+01  9.4485074534792313e-01  9.1732474999999994e+01  1.3558554776500358e-02 -4.7326892999999998e+01
 1077000000  7.6247094684714876e-03  3.5777495999999999e+01  9.4344994391970516e-01  9.0165160999999998e+01  9.4401906563076887e-01  9.0160323999999989e+01  1.3382601624386445e-02 -4.6931781999999998e+01
 1078000000  7.7163630014379985e-03  3.3826866000000003e+01  9.4356577330972236e-01  8.8583922999999984e+01  9.4370381668813152e-01  8.8635597000000004e+01  1.2466323712246714e-02 -5.3800643999999998e+01
 1079000000  7.7538804369149499e-03  3.0842631999999998e+01  9.4380155706955748e-01  8.7028175000000005e+01  9.4410196271830971e-01  8.7015297000000004e+01  1.2185738383812917e-02 -5.4490935999999991e+01
 1080000000  6.0813157059605291e-03  3.4564681999999998e+01  9.4431962205013109e-01  8.5416183000000004e+01  9.4427385688709853e-01  8.5386275999999995e+01  1.1610445922207750e-02 -5.6272101999999997e+01
 1081000000  5.4141115557181443e-03  4.2455253999999989e+01  9.4436746280176376e-01  8.3840805000000003e+01  9.4415600245222453e-01  8.3810669000000004e+01  1.0596106141809877e-02 -6.2175246999999999e+01
 1082000000  5.3417136088110906e-03  3.7660278000000005e+01  9.4391686670444730e-01  8.2227417000000003e+01  9.4471598855129435e-01  8.2270362999999989e+01  1.0097150975406302e-02 -6.2201050000000009e+01
 1083000000  4.2144339323421948e-03  4.5895889000000004e+01  9.4347828078879603e-01  8.0655593999999994e+01  9.4377774253976798e-01  8.0690735000000004e+01  8.6790501929477539e-03 -6.4758292999999995e+01
 1084000000  3.3826794885077637e-03  5.7962502000000008e+01  9.4418898803638351e-01  7.9061233999999999e+01  9.4448718782868890e-01  7.9051849000000004e+01  7.8823143369155316e-03 -6.4412552000000005e+01
 1085000000  3.5336359122800786e-03  6.3349261999999996e+01  9.4419069251310528e-01  7.7465332000000004e+01  9.4359552700393434e-01  7.7468979000000004e+01  7.2887264295507246e-03 -6.8546584999999993e+01
 1086000000  3.1217926228947089e-03  7.8496245999999985e+01  9.4436203529920082e-01  7.5876816000000005e+01  9.4394831486053454e-01  7.5913962999999995e+01  5.3996169254971801e-03 -7.4895401000000007e+01
 1087000000  2.6148058624958898e-03  9.9295424999999994e+01  9.4327505362942121e-01  7.4318100000000001e+01  9.4415817971527094e-01  7.4346176000000000e+01  4.7349549354890972e-03 -8.1907837000000001e+01
 1088000000  3.2009953997022434e-03  1.0578319000000002e+02  9.4301963835337910e-01  7.2719489999999993e+01  9.4385249025649964e-01  7.2785606000000001e+01  4.8150350186874896e-03 -8.1323600999999996e+01
 1089000000  3.9118883409436844e-03  1.0829840000000002e+02  9.4369633739516190e-01  7.1107772999999995e+01  9.4383474325004368e-01  7.1158828999999983e+01  4.3095209867033005e-03 -8.6937233000000006e+01
 1090000000  3.8382826244197600e-03  1.1594925999999998e+02  9.4363130894043035e-01  6.9567954999999998e+01  9.4342681819809548e-01  6.9525261000000000e+01  3.1251218114273505e-03 -1.0348178000000000e+02
 1091000000  5.0744169609916959e-03  1.3161290000000000e+02  9.4420577965773211e-01  6.7924835000000016e+01  9.4350256679722244e-01  6.7952720999999997e+01  2.5016543289422795e-03 -1.2142167999999998e+02
 1092000000  5.6151582456523044e-03  1.3229189000000000e+02  9.4367533615293564e-01  6.6374877999999995e+01  9.4395175446428747e-01  6.6418639999999996e+01  2.1115759163651900e-03 -1.2473909000000002e+02
 1093000000  6.1826775928369992e-03  1.3080137999999999e+02  9.4327925423083736e-01  6.4781852999999998e+01  9.4355121129924779e-01  6.4835373000000004e+01  1.8134477626180192e-03 -1.4724838000000000e+02
 1094000000  6.6451647095742720e-03  1.3535805999999999e+02  9.4330493933887938e-01  6.3232841000000001e+01  9.4393205597433849e-01  6.3214981000000002e+01  2.1988254246648881e-03 -1.7282232999999999e+02
 1095000000  7.7598495299095660e-03  1.4085631000000001e+02  9.4314967950177375e-01  6.1610087999999998e+01  9.4370505418871775e-01  6.1607051999999996e+01  2.6398217331199320e-03  1.7205880999999999e+02
 1096000000  8.5897732575135055e-03  1.4144040000000001e+02  9.4270064776160123e-01  6.0027023000000000e+01  9.4338985797447961e-01  6.0033400999999998e+01  2.9785791834211518e-03  1.4814024000000001e+02
