!Keysight Technologies,N5232B,MY63057082,A.15.71.11
!Date: Thursday, April 03, 2025 04:25:38
!Correction: S11(C  2-Port  ) 
!S21(C  2-Port  ) 
!S12(C  2-Port  ) 
!S22(C  2-Port  ) 
!S2P File: Measurements: S11, S21, S12, S22:
# Hz S  MA   R 50
1000000000 0.50837529 -133.25908 0.0031692977 -93.722862 0.0030673549 -93.690308 0.09857472 164.61723
1001000000 0.50897622 -136.81157 0.0030675849 -99.144524 0.0030032825 -96.657173 0.098725021 164.68095
1002000000 0.50980675 -140.25421 0.0031631056 -100.5383 0.0032139008 -94.904518 0.099135406 164.54935
1003000000 0.51030743 -143.70998 0.003054576 -103.82263 0.0030383209 -100.83894 0.09902709 164.67027
1004000000 0.51112211 -147.12961 0.0031265938 -103.01819 0.0030593823 -103.42801 0.099204361 164.5858
1005000000 0.51162922 -150.56157 0.0032189749 -106.0029 0.0030788628 -107.00673 0.099524625 164.41609
1006000000 0.51232564 -153.99907 0.003298766 -106.15546 0.0031891488 -107.16445 0.099898651 164.38377
1007000000 0.51366901 -157.43777 0.0032775973 -108.62788 0.0030871951 -107.21686 0.10022893 164.22952
1008000000 0.51421022 -160.84529 0.0032729695 -113.25383 0.0030814142 -115.04691 0.10024345 164.10452
1009000000 0.51554626 -164.19926 0.0031171818 -113.1021 0.0032897857 -114.2863 0.10025026 164.02675
1010000000 0.51589 -167.6459 0.003253612 -112.77699 0.0032098009 -115.01193 0.10029657 164.06473
1011000000 0.51705283 -171.0394 0.0031532042 -116.58917 0.0031055575 -120.2187 0.10080241 163.82732
1012000000 0.51801729 -174.3815 0.0032912218 -120.27313 0.0032920595 -121.68358 0.10077568 163.85901
1013000000 0.51962942 -177.70578 0.0032483791 -121.67117 0.0032208157 -124.64244 0.10105867 163.72351
1014000000 0.52017701 178.9353 0.0032579273 -124.17069 0.0032248488 -123.98102 0.1012475 163.86551
1015000000 0.52097869 175.61546 0.0031410665 -125.40366 0.0031091587 -125.65719 0.10126902 163.71672
1016000000 0.52121139 172.2821 0.0031661387 -128.83591 0.0031810936 -124.75842 0.10168064 163.51059
1017000000 0.52269298 169.02667 0.0031489437 -131.30669 0.0031178966 -125.66118 0.10194329 163.3434
1018000000 0.52394086 165.73001 0.0032557829 -131.9879 0.003053556 -130.95512 0.1020735 163.35181
1019000000 0.52450705 162.45695 0.0033159328 -133.7659 0.0031550822 -134.82671 0.10220069 163.26546
1020000000 0.52565432 159.21034 0.0031495823 -136.85689 0.0031485551 -133.63487 0.10237225 163.22647
1021000000 0.52641749 155.88536 0.0031979529 -137.83556 0.0031973342 -136.6077 0.10238555 163.0244
1022000000 0.52744853 152.60963 0.0029961888 -140.65469 0.0033583778 -139.5798 0.10278501 163.05679
1023000000 0.52798283 149.3889 0.0031604283 -140.44215 0.0031447273 -140.8454 0.10283247 162.83009
1024000000 0.52925372 146.16573 0.0031708986 -141.78648 0.0031479939 -145.29758 0.10330033 162.98579
1025000000 0.52954137 142.87944 0.0031171115 -143.17142 0.003259867 -146.90089 0.10319545 162.80527
1026000000 0.53037906 139.68472 0.0030990755 -145.50941 0.0032304423 -148.10106 0.10355905 162.83266
1027000000 0.53121161 136.50728 0.0031121159 -152.27603 0.0031692013 -149.15738 0.10367168 162.66878
1028000000 0.53188592 133.23485 0.0032211766 -152.60896 0.0030848987 -151.62096 0.1039561 162.64589
1029000000 0.53303069 130.04768 0.0032735858 -153.70038 0.0031676393 -152.87103 0.10406572 162.38573
1030000000 0.53341973 126.85364 0.0031678739 -153.96521 0.0031272585 -152.3819 0.10411655 162.38541
1031000000 0.53332728 123.62939 0.0031668136 -155.73996 0.0031058067 -157.0733 0.10429219 162.34337
1032000000 0.53427571 120.43834 0.0033002067 -156.10728 0.0032135453 -157.32664 0.10429788 162.35913
1033000000 0.53457195 117.29615 0.0033172916 -160.72479 0.003119393 -159.72774 0.10504709 162.04909
1034000000 0.53549671 114.11849 0.003277591 -162.12524 0.0032772922 -164.31171 0.10499997 161.87137
1035000000 0.53499925 110.88629 0.0030829369 -162.38246 0.0031195688 -162.46931 0.10497151 162.0623
1036000000 0.53585392 107.69319 0.0032763202 -166.0733 0.0030400958 -166.32968 0.10538973 161.88832
1037000000 0.53676808 104.49743 0.0031417331 -168.40047 0.0031518398 -167.7148 0.10531222 161.76485
1038000000 0.53652531 101.41401 0.0031068132 -169.44099 0.0031421322 -171.49052 0.1055723 161.71805
1039000000 0.53703433 98.229401 0.0031908988 -171.20451 0.0031533164 -171.45973 0.10604534 161.51868
1040000000 0.53680539 95.037239 0.0032539307 -174.10715 0.0032462503 -175.9254 0.1060596 161.52309
1041000000 0.53740501 91.859444 0.0032692458 -172.54437 0.0031868077 -176.25229 0.10612983 161.44176
1042000000 0.537305 88.688911 0.0032458899 -176.40369 0.0032410305 -176.55109 0.10666127 161.27986
1043000000 0.53742182 85.521843 0.0032686391 179.12692 0.0031513947 -177.80209 0.10679052 161.34439
1044000000 0.53668976 82.297523 0.0033753985 176.16028 0.0032474562 176.73557 0.10682857 161.08125
1045000000 0.53656429 79.142067 0.0031367175 175.54254 0.0034153152 177.33243 0.10716598 161.11682
1046000000 0.53699303 75.919975 0.0031998428 175.82639 0.0031501893 173.71098 0.10726988 161.07668
1047000000 0.53643656 72.761398 0.0031622373 171.36627 0.0031908448 172.43668 0.1071713 160.82524
1048000000 0.53576517 69.585419 0.0032637645 171.28108 0.0031612057 171.26149 0.10735217 160.68141
1049000000 0.53572679 66.391785 0.0033184721 170.25497 0.0033327632 169.30264 0.1078103 160.64304
1050000000 0.53521943 63.182598 0.0032697374 168.02686 0.0033310764 167.33499 0.10803057 160.64545
1051000000 0.53533059 59.95747 0.0033894654 164.56795 0.0032969317 163.62439 0.10833482 160.54132
1052000000 0.53462452 56.833218 0.003272627 162.10768 0.0033044408 162.00946 0.10818453 160.35782
1053000000 0.53453058 53.595779 0.0031369461 161.49506 0.0030760078 160.23933 0.10874484 160.20221
1054000000 0.53323668 50.374279 0.0032420203 162.70969 0.0031621321 155.33154 0.10852022 160.07176
1055000000 0.53307551 47.067371 0.0032208252 157.57216 0.0033554772 157.73961 0.10888223 160.15451
1056000000 0.53192896 43.874775 0.0033306179 153.89525 0.0034500719 156.18726 0.10910022 160.04271
1057000000 0.53123301 40.621586 0.0033079509 153.82646 0.0032876141 154.75925 0.10958374 159.82936
1058000000 0.53045315 37.364441 0.0031172009 150.39986 0.0031727978 150.33977 0.10933956 159.82137
1059000000 0.53000194 34.099297 0.0033822847 148.87444 0.0031845318 148.49496 0.10978115 159.75107
1060000000 0.52877021 30.800226 0.0033310512 146.17381 0.0033619883 147.9335 0.10988691 159.54848
1061000000 0.52818406 27.540997 0.0033872314 144.78581 0.0034954294 143.19049 0.11014439 159.43634
1062000000 0.52696729 24.23131 0.0032932248 143.17496 0.0032879666 145.42442 0.11026131 159.43475
1063000000 0.52599317 20.879818 0.0033110844 139.40323 0.0034022357 143.6864 0.11041074 159.34026
1064000000 0.52502233 17.640728 0.0033738667 140.42946 0.0032694545 138.19818 0.11064346 159.21696
1065000000 0.52430576 14.295159 0.0033401814 136.6158 0.003356406 132.93118 0.11076585 159.03764
1066000000 0.523197 10.894794 0.0033227263 135.64249 0.003204819 135.18417 0.11115073 158.98975
1067000000 0.52218139 7.5109677 0.003388894 134.07889 0.0033434907 134.19777 0.11116183 158.98872
1068000000 0.5211395 4.1588225 0.0034021784 128.93698 0.0034367994 129.75507 0.11150315 158.77092
1069000000 0.51999295 0.83314228 0.0033697207 129.50235 0.0032889473 129.14072 0.11148696 158.80199
1070000000 0.51885986 -2.5776367 0.0033424511 128.73909 0.003427489 127.71745 0.11185451 158.59344
1071000000 0.51819026 -5.9773111 0.0033584887 124.19193 0.0033086755 123.60614 0.11205394 158.55568
1072000000 0.51738322 -9.3547821 0.0033587916 122.72926 0.0032783328 122.2831 0.11208341 158.28493
1073000000 0.51550472 -12.744912 0.0034688599 122.61749 0.0033634363 121.0383 0.11241652 158.31546
1074000000 0.51510859 -16.185972 0.0034022946 119.44661 0.0033255944 117.42874 0.11272151 158.3602
1075000000 0.51374054 -19.619614 0.003333427 117.65633 0.0034370623 116.0145 0.11286242 158.15562
1076000000 0.51271456 -23.065632 0.0035131113 116.50579 0.0033619506 112.96317 0.11337122 158.07697
1077000000 0.51180786 -26.585695 0.0033280682 110.93207 0.0033740811 112.94225 0.11334326 157.83891
1078000000 0.51062435 -30.05452 0.003295887 110.65789 0.0033525783 110.23501 0.11323404 157.89362
1079000000 0.50946945 -33.492306 0.0033808011 108.39206 0.0033519017 105.80151 0.11363184 157.7426
1080000000 0.50888169 -37.008968 0.0032612549 106.92841 0.003387524 106.04346 0.11381588 157.6319
1081000000 0.50779271 -40.526424 0.0033146795 102.40765 0.0034597428 105.36944 0.11397341 157.60455
1082000000 0.50677359 -43.99889 0.00339719 104.79676 0.0034780758 103.876 0.11396702 157.43666
1083000000 0.50557077 -47.554356 0.0033180357 101.82041 0.0033160679 103.66886 0.11430339 157.29518
1084000000 0.50501931 -51.090309 0.0033904228 99.865593 0.0034004436 99.091667 0.11456271 157.14174
1085000000 0.50469726 -54.624493 0.0035850001 96.890396 0.0034697005 98.024117 0.11478728 157.09248
1086000000 0.50357318 -58.173119 0.0034964602 93.447449 0.003446155 95.278015 0.11528802 157.03766
1087000000 0.50292259 -61.705631 0.003413074 93.738052 0.0033727016 91.894897 0.11541833 157.04146
1088000000 0.50298232 -65.26239 0.003183116 91.494545 0.0033629746 90.181969 0.11540701 156.84225
1089000000 0.50245565 -68.880966 0.0032881042 87.527931 0.0035313328 89.149933 0.11565734 156.76955
1090000000 0.50157839 -72.389442 0.0033172525 87.166885 0.0035061354 87.295959 0.11587168 156.67209
1091000000 0.50175542 -75.969452 0.0033432618 82.574608 0.0034199418 84.553337 0.11608133 156.54659
1092000000 0.50132179 -79.470757 0.0035227833 84.162682 0.0034017269 82.222717 0.11627191 156.42407
1093000000 0.50051177 -83.072327 0.0034861155 80.350746 0.0033777899 79.921906 0.11644023 156.33122
1094000000 0.5005607 -86.57618 0.0032531903 78.247749 0.0034357458 77.259415 0.11662669 156.21475
1095000000 0.50072664 -90.155586 0.0033603802 76.135689 0.0034624408 74.751762 0.116917 156.06808
1096000000 0.50125653 -93.71772 0.0035636609 73.664986 0.0034686201 74.367134 0.11733228 155.98303
1097000000 0.50126517 -97.37207 0.0034068758 73.703773 0.0034930345 72.97493 0.11746872 155.89186
1098000000 0.50081646 -100.89317 0.0032508862 70.897064 0.0035180449 72.505791 0.11748127 155.67836
1099000000 0.50094569 -104.5099 0.0034420767 67.49128 0.0034260342 70.408745 0.11761379 155.72621
1100000000 0.50152272 -107.96133 0.0034751447 66.15683 0.0033687302 65.071762 0.11794749 155.53893
1101000000 0.50185269 -111.47033 0.0034370031 64.965729 0.0032888884 65.078026 0.11801957 155.45325
1102000000 0.50219035 -115.02271 0.0035451453 61.505177 0.0034053791 60.34486 0.11838903 155.2791
1103000000 0.5029943 -118.61281 0.0035125627 59.27599 0.0034361209 61.734154 0.11863688 155.12048
1104000000 0.5033145 -122.09113 0.0033391472 59.199905 0.0033296137 63.041805 0.11871514 155.28523
1105000000 0.50393188 -125.55212 0.0033874013 60.048355 0.0034085044 59.732895 0.11903557 155.00768
1106000000 0.50447112 -129.11235 0.0033655316 55.584694 0.0034397701 54.237804 0.11913653 154.89194
1107000000 0.50513762 -132.60527 0.0033602002 52.616276 0.0034212456 52.97451 0.1191363 154.88704
1108000000 0.50618809 -136.09923 0.0033712578 52.628635 0.003568962 50.24913 0.11936257 154.80389
1109000000 0.50707334 -139.51093 0.0034619984 47.391403 0.003399305 48.397385 0.11979128 154.7265
1110000000 0.50774962 -142.978 0.003439571 44.441833 0.0033259119 46.673519 0.12013119 154.51334
1111000000 0.50887448 -146.44994 0.0034768232 43.198528 0.0034163117 45.586029 0.12017747 154.46732
1112000000 0.50993276 -149.86052 0.0033990918 44.329842 0.0034500512 41.77124 0.12032534 154.39745
1113000000 0.5109511 -153.30585 0.0034031721 38.629356 0.0035136726 39.83847 0.12071049 154.22765
1114000000 0.51196325 -156.70055 0.0033827713 37.620007 0.0033672573 39.717575 0.12083253 154.12025
1115000000 0.51267046 -160.03162 0.0034322208 35.539829 0.0035220189 37.132271 0.12100728 154.03539
1116000000 0.51357633 -163.44656 0.0032813074 35.471825 0.0034830638 34.291973 0.1211786 153.93726
1117000000 0.51509345 -166.85719 0.0034310054 35.982094 0.0033462869 30.961159 0.1213305 153.77171
1118000000 0.51614189 -170.17374 0.0034196822 31.74481 0.0033567811 30.41753 0.12157334 153.65816
1119000000 0.51711351 -173.51913 0.0034920496 27.998377 0.0034267814 29.956274 0.12195618 153.65555
1120000000 0.51793051 -176.84886 0.0034935423 26.082563 0.0034285688 28.283838 0.12202852 153.55362
1121000000 0.51891518 179.86555 0.003470582 23.77244 0.0034608243 27.015188 0.12222943 153.48514
1122000000 0.52012938 176.57669 0.003434119 22.732622 0.0035240878 23.402641 0.12243285 153.4601
1123000000 0.52118713 173.31572 0.0033990841 20.319775 0.0034278207 22.581089 0.12259468 153.14885
1124000000 0.52252126 169.95602 0.0034149399 17.617739 0.0032501023 18.733027 0.12280571 153.15977
1125000000 0.52346617 166.68187 0.0033713062 15.984912 0.0034851364 19.00864 0.12300564 152.93872
1126000000 0.52448124 163.39398 0.0034532549 16.501871 0.0034939684 15.978414 0.12333198 152.8472
1127000000 0.52544284 160.15659 0.0034867018 13.532602 0.0033284102 12.210538 0.12304167 152.84639
1128000000 0.52671844 156.9841 0.0034703794 10.435212 0.003404212 10.943883 0.12355433 152.59348
1129000000 0.52707314 153.71475 0.0033612554 8.8815422 0.0032754771 7.1302252 0.12365356 152.49631
1130000000 0.52817863 150.48047 0.0034500281 4.5092378 0.0034883022 8.8371229 0.12411089 152.49289
1131000000 0.52893239 147.25261 0.0032634474 7.7534633 0.0032581536 3.5500479 0.12429478 152.36253
1132000000 0.53003138 144.05658 0.0034542487 1.6767138 0.0033034286 2.9739552 0.12456845 152.28006
1133000000 0.53033304 140.82552 0.003487434 -0.29417053 0.0034776507 2.0380204 0.12467954 152.03831
1134000000 0.53161716 137.70865 0.0035132219 -0.88877451 0.0034035104 0.044553474 0.12451617 151.93025
1135000000 0.5318504 134.51056 0.0033599366 -0.57423723 0.0034281644 -3.6533644 0.12483878 151.85925
1136000000 0.5326041 131.35054 0.0035444221 -5.4892869 0.0034857329 -5.6597409 0.12514432 151.73828
1137000000 0.53338414 128.15408 0.0034184915 -3.3818872 0.0035221099 -7.0139427 0.12543543 151.81477
1138000000 0.53352582 124.97211 0.0034537008 -7.0096502 0.0035244473 -7.763031 0.1254479 151.59103
1139000000 0.53440118 121.81225 0.0034752502 -7.543396 0.0034342967 -9.6550732 0.12555937 151.466
1140000000 0.53491735 118.67168 0.0033645593 -12.405232 0.0036110028 -12.360255 0.12585686 151.4016
1141000000 0.53532463 115.4807 0.0034225658 -14.340453 0.0034557548 -10.651981 0.12605123 151.28194
1142000000 0.53607166 112.37722 0.0033428166 -15.684011 0.0034278056 -12.501688 0.12607694 151.12337
1143000000 0.53627294 109.24237 0.003414046 -17.13109 0.0033573075 -16.37974 0.12621027 150.97891
1144000000 0.53677779 106.03583 0.0035664609 -17.996769 0.0034431955 -18.577873 0.12638013 150.99191
1145000000 0.53656709 102.9014 0.0034146346 -22.120697 0.0035260825 -19.59519 0.12652302 150.84
1146000000 0.53698081 99.740166 0.0033674554 -24.284576 0.0033454618 -23.729393 0.12693147 150.62881
1147000000 0.53688347 96.581299 0.0034069808 -26.36685 0.0033719861 -28.462931 0.1270619 150.62604
1148000000 0.53700787 93.417618 0.0035730393 -27.503597 0.0034507723 -27.249735 0.12708612 150.51826
1149000000 0.5365963 90.313232 0.003404092 -29.143301 0.0034844195 -30.366096 0.12745105 150.39088
1150000000 0.53635156 87.118896 0.0034945882 -30.777308 0.0034087664 -33.515118 0.12787877 150.16016
1151000000 0.53553319 84.006889 0.0034642706 -32.732502 0.003429136 -33.210552 0.12813348 150.15341
1152000000 0.53616786 80.767776 0.0032830664 -33.412373 0.0034099319 -32.320087 0.12808344 150.08235
1153000000 0.53525889 77.606537 0.0034222789 -35.965187 0.0032340134 -35.888023 0.12816316 149.92194
1154000000 0.53491884 74.517265 0.0034798535 -40.064568 0.0033715696 -39.4701 0.12842481 149.79637
1155000000 0.53489715 71.329926 0.003477152 -42.994946 0.0033978531 -39.61758 0.12866127 149.7506
1156000000 0.53407401 68.141258 0.0035243116 -43.693211 0.0035046218 -43.134216 0.128722 149.56464
1157000000 0.5337317 64.983513 0.0035203896 -45.632473 0.0034553402 -46.534798 0.12890422 149.51404
1158000000 0.53309327 61.768372 0.0033270367 -44.577911 0.0035656036 -46.694046 0.12926589 149.27234
1159000000 0.53312796 58.56509 0.0033841624 -47.656296 0.003437113 -46.613556 0.12925147 149.2648
1160000000 0.53163946 55.368519 0.0033819014 -49.266926 0.0035518198 -49.346405 0.12962526 149.23538
1161000000 0.53071654 52.149117 0.0034248543 -52.849312 0.0036986456 -51.134094 0.12984167 149.15854
1162000000 0.53022492 48.930485 0.0034566941 -52.888294 0.0036109115 -54.873608 0.13017243 149.00774
1163000000 0.5293588 45.674587 0.0036194848 -54.663975 0.0034880638 -56.142384 0.12982219 148.91516
1164000000 0.52843392 42.458744 0.0035091322 -58.060268 0.0035363312 -56.478783 0.13027182 148.78334
1165000000 0.52733701 39.212517 0.0035836382 -58.944088 0.0034856217 -57.594101 0.13030688 148.6008
1166000000 0.52667087 35.915787 0.0035374765 -61.313351 0.0034301558 -61.696232 0.13089266 148.60049
1167000000 0.52558136 32.663864 0.00361675 -65.046402 0.0035559251 -65.055618 0.13058494 148.53511
1168000000 0.52478546 29.404804 0.0035909223 -64.750809 0.0035681943 -68.071907 0.13060264 148.286
1169000000 0.52357101 26.061562 0.0034769366 -66.170616 0.0036127544 -66.595879 0.13115513 148.24158
1170000000 0.52254647 22.787395 0.0034514167 -66.490257 0.0034744381 -68.340805 0.13118723 148.10788
1171000000 0.52168614 19.517223 0.0036876146 -70.850342 0.0035117075 -72.238441 0.13137394 147.99883
1172000000 0.52079648 16.206739 0.0034571202 -72.89135 0.0036131418 -73.350471 0.13141558 147.7861
1173000000 0.51983774 12.848045 0.0035774964 -75.261703 0.0035620651 -75.350227 0.13171972 147.80026
1174000000 0.51816911 9.500967 0.0035343801 -77.991486 0.0035796566 -76.63401 0.1318102 147.56776
1175000000 0.51678407 6.1729131 0.0034911239 -76.885544 0.0037119018 -78.588287 0.13206911 147.54607
1176000000 0.51636231 2.7655358 0.0033824998 -80.060402 0.0035930106 -80.464981 0.1321871 147.3145
1177000000 0.51476365 -0.59590989 0.0036897599 -82.160736 0.0036202436 -84.156197 0.13226977 147.30157
1178000000 0.51358449 -3.9728162 0.0035010958 -86.938271 0.0034762262 -85.560555 0.13245289 147.21449
1179000000 0.51237935 -7.3961158 0.0037376615 -87.936615 0.0036246695 -87.261208 0.13281694 147.11537
1180000000 0.51148725 -10.764721 0.0034951454 -88.083099 0.0037059567 -89.024422 0.13272819 146.86115
1181000000 0.51032078 -14.16692 0.0035284709 -91.855614 0.0035728321 -94.831665 0.13305332 146.77631
1182000000 0.50943744 -17.642328 0.0034846566 -93.725914 0.0035674423 -94.70211 0.13355555 146.64742
1183000000 0.50805604 -21.074942 0.0035388195 -94.230583 0.003582964 -93.915924 0.1332711 146.44092
1184000000 0.50694525 -24.600164 0.0036461568 -96.307869 0.003670607 -99.100777 0.13334042 146.30725
1185000000 0.50578004 -28.024878 0.0037632461 -97.998764 0.0037670457 -101.00573 0.13365386 146.20448
1186000000 0.50448579 -31.455132 0.0036577322 -101.83459 0.0036539237 -101.61649 0.13402253 146.19487
1187000000 0.50391263 -34.983654 0.0036275829 -104.53539 0.0036429064 -101.86575 0.13372244 146.15501
1188000000 0.50267923 -38.482517 0.0035750084 -106.03185 0.0035953652 -105.58569 0.13427268 145.9991
1189000000 0.50181943 -41.997002 0.0035428891 -109.72732 0.0037639735 -109.17968 0.13451172 145.87111
1190000000 0.5013932 -45.587631 0.0037135242 -110.84778 0.0037626273 -112.68913 0.13451186 145.83192
1191000000 0.49993214 -49.045658 0.0035778957 -112.24897 0.0036178001 -110.65637 0.13459213 145.60793
1192000000 0.49969864 -52.539852 0.0035806843 -114.53739 0.0035597072 -111.99275 0.13526376 145.39824
1193000000 0.49825251 -56.11343 0.0037103747 -116.57711 0.0035549058 -115.97492 0.13493551 145.2216
1194000000 0.49752074 -59.715107 0.0038146607 -117.25343 0.0035676358 -118.00861 0.13526127 145.28351
1195000000 0.49709827 -63.23325 0.0035809348 -120.00591 0.0036185863 -119.658 0.1354958 145.19609
1196000000 0.49631703 -66.784126 0.0037226854 -120.93848 0.0037353225 -120.24902 0.13552374 145.00406
1197000000 0.49568319 -70.290474 0.00358193 -123.14252 0.0036844059 -125.7076 0.13570668 144.9037
