!Keysight Technologies,N5232B,MY63057082,A.15.71.11
!Date: Thursday, April 03, 2025 04:16:37
!Correction: S11(C  2-Port  ) 
!S21(C  2-Port  ) 
!S12(C  2-Port  ) 
!S22(C  2-Port  ) 
!S2P File: Measurements: S11, S21, S12, S22:
# Hz S  dB   R 50
1000000000 -32.981586 123.33128 -0.47304872 -147.70555 -0.48691702 -147.69142 -35.246601 94.398834
1001000000 -33.136196 122.21329 -0.48090503 -149.2711 -0.48630896 -149.30829 -35.234886 92.407684
1002000000 -32.884098 120.08749 -0.48042011 -150.88338 -0.47905156 -150.85738 -34.752258 89.455208
1003000000 -32.677193 118.46858 -0.47906426 -152.46788 -0.47833419 -152.45042 -34.649635 88.385971
1004000000 -32.47921 117.49023 -0.48649195 -154.01814 -0.48273239 -154.05995 -34.258656 86.307426
1005000000 -32.371105 116.56673 -0.48751995 -155.65616 -0.48932111 -155.67296 -34.389091 81.121048
1006000000 -32.128029 113.50288 -0.48632053 -157.25955 -0.48691875 -157.18309 -34.275936 79.565269
1007000000 -32.047272 114.14207 -0.47999337 -158.7782 -0.48914236 -158.8246 -33.74836 77.75946
1008000000 -31.937691 112.62491 -0.48414496 -160.38382 -0.49111697 -160.38794 -33.680393 76.387489
1009000000 -31.906023 111.93674 -0.48434696 -161.95679 -0.48794773 -161.9959 -33.131763 74.733742
1010000000 -31.474739 110.44695 -0.48623773 -163.57367 -0.48745042 -163.57635 -33.196152 71.94529
1011000000 -31.494411 111.10358 -0.48688978 -165.1514 -0.49459571 -165.21771 -32.919098 71.66021
1012000000 -31.407415 107.91776 -0.48491305 -166.70348 -0.49356285 -166.77458 -32.849892 69.302139
1013000000 -31.511015 106.68871 -0.48814353 -168.31511 -0.48478195 -168.30472 -32.655415 67.652748
1014000000 -31.346434 104.40768 -0.50192565 -169.88771 -0.48791441 -169.90268 -32.651779 64.948006
1015000000 -31.178831 103.32114 -0.48601684 -171.51396 -0.48212984 -171.50986 -32.394386 64.508461
1016000000 -31.127056 102.2579 -0.49317685 -173.0462 -0.49155059 -173.08842 -32.20647 62.382835
1017000000 -30.967319 100.06342 -0.49420324 -174.66368 -0.48729116 -174.67346 -32.01976 59.87788
1018000000 -31.032003 100.27351 -0.48859483 -176.274 -0.49491772 -176.27896 -31.878069 56.56601
1019000000 -31.027781 98.373512 -0.4963119 -177.85432 -0.49420819 -177.85948 -31.925293 55.84436
1020000000 -31.021645 97.648361 -0.48925507 -179.43405 -0.48998785 -179.4583 -31.943596 53.593983
1021000000 -30.813765 96.276695 -0.48435998 179.02327 -0.49253342 178.99236 -31.669312 52.581333
1022000000 -30.829109 95.114792 -0.48688284 177.40875 -0.49214721 177.41603 -31.636827 51.591038
1023000000 -30.669277 93.814728 -0.48473072 175.82039 -0.49409854 175.8253 -31.39731 47.657314
1024000000 -30.755125 92.682884 -0.48881903 174.25801 -0.49259719 174.20093 -31.577564 45.622097
1025000000 -30.641737 90.06852 -0.48810008 172.68901 -0.49426678 172.60005 -31.346512 42.331585
1026000000 -30.658215 88.914833 -0.49192718 171.10661 -0.49560067 171.01248 -31.307529 42.26379
1027000000 -30.626104 88.032097 -0.49276713 169.5103 -0.49184978 169.43707 -31.33161 41.735455
1028000000 -30.656744 86.576462 -0.49145639 167.96863 -0.48899952 167.83417 -31.170782 38.249844
1029000000 -30.590565 86.074005 -0.48907745 166.35411 -0.49428272 166.29926 -30.995121 37.851788
1030000000 -30.742315 84.570015 -0.48795179 164.72867 -0.49203908 164.71861 -30.960299 36.310753
1031000000 -30.82877 82.175278 -0.48649773 163.20306 -0.48690629 163.12643 -30.903847 33.289692
1032000000 -30.723986 80.86187 -0.49745253 161.6062 -0.49415857 161.54897 -30.824955 31.590734
1033000000 -30.66087 80.393913 -0.49291527 160.02357 -0.49435148 159.98438 -31.177786 30.608543
1034000000 -30.849291 79.284042 -0.49364841 158.39342 -0.49071407 158.341 -30.963514 29.260271
1035000000 -30.858528 77.198509 -0.49387228 156.86397 -0.49689087 156.78778 -30.861076 26.112543
1036000000 -30.839897 76.699173 -0.49841607 155.26244 -0.49344045 155.20265 -30.993874 25.469992
1037000000 -30.737616 75.530708 -0.4961938 153.68793 -0.49524003 153.61417 -30.864729 23.31826
1038000000 -30.98101 73.241089 -0.48592332 152.07727 -0.49886581 152.0634 -30.915667 21.991663
1039000000 -30.872124 72.600227 -0.49104768 150.49629 -0.50027317 150.42024 -30.926256 21.032488
1040000000 -30.784655 70.822693 -0.49021879 148.91074 -0.48831761 148.85165 -30.982239 18.248701
1041000000 -30.968369 70.547348 -0.49572951 147.28984 -0.49423921 147.24348 -30.843178 16.405338
1042000000 -31.037022 67.718323 -0.49346337 145.69545 -0.49388099 145.68657 -31.075081 16.054462
1043000000 -31.135721 67.513107 -0.49546605 144.11786 -0.49744615 144.0834 -31.180273 13.252872
1044000000 -31.086407 67.08857 -0.49339697 142.59575 -0.49887946 142.48668 -30.886339 12.769082
1045000000 -31.30455 64.100616 -0.49218142 141.00269 -0.49305332 140.87682 -31.229254 8.9971504
1046000000 -31.28117 62.778618 -0.49400339 139.36702 -0.49240613 139.33806 -31.125557 7.1641574
1047000000 -31.777987 60.897442 -0.49077117 137.81683 -0.49530387 137.72255 -31.294756 5.8748031
1048000000 -31.910389 59.454296 -0.49780753 136.22621 -0.49203271 136.17667 -31.240709 5.0929847
1049000000 -31.887009 60.658974 -0.49525511 134.63634 -0.49382243 134.5546 -31.322998 2.842947
1050000000 -31.813959 57.348022 -0.49846047 133.05643 -0.49559835 132.97874 -31.403793 -0.30749843
1051000000 -32.141891 55.314159 -0.50094914 131.45221 -0.49955985 131.38821 -31.589634 -0.30323774
1052000000 -32.566261 54.152081 -0.49099958 129.88866 -0.50292766 129.83598 -31.554207 -2.4866951
1053000000 -32.839386 53.449512 -0.49018344 128.27179 -0.50241876 128.23428 -31.751698 -3.1441216
1054000000 -32.533154 52.456116 -0.49766472 126.73461 -0.49865064 126.63808 -31.794834 -5.1748567
1055000000 -32.765984 52.648666 -0.49592218 125.10017 -0.50019795 125.10184 -32.02634 -9.2002831
1056000000 -33.091976 50.394615 -0.49300343 123.53288 -0.50278902 123.47873 -31.987141 -9.6214752
1057000000 -33.168758 48.749622 -0.49849328 121.91651 -0.4991951 121.86414 -32.44928 -10.816255
1058000000 -33.48568 47.468624 -0.49843928 120.35043 -0.49406895 120.30962 -32.297173 -12.45682
1059000000 -33.65881 45.835381 -0.50045097 118.7608 -0.49623847 118.72975 -32.348728 -14.596268
1060000000 -33.765526 45.035686 -0.49851593 117.16566 -0.49760666 117.16203 -32.466843 -16.050182
1061000000 -34.431973 43.611622 -0.50574952 115.59015 -0.49340624 115.53056 -32.795418 -17.845289
1062000000 -34.598221 40.713654 -0.50275326 114.0055 -0.49226117 113.98602 -33.041473 -20.600111
1063000000 -34.562595 42.297905 -0.49414089 112.44487 -0.49341667 112.34119 -32.959301 -23.080063
1064000000 -34.937904 40.597504 -0.49878132 110.83983 -0.50176203 110.80227 -33.189823 -24.350491
1065000000 -35.183582 38.032578 -0.49993277 109.26711 -0.49724528 109.17823 -33.675407 -24.644367
1066000000 -35.362411 38.491299 -0.49059498 107.64998 -0.49934176 107.58006 -34.213776 -28.675846
1067000000 -36.165855 37.800888 -0.49861407 106.10376 -0.50071645 106.05051 -34.097233 -29.810795
1068000000 -36.660408 37.881321 -0.49786851 104.46013 -0.50289744 104.41983 -34.146229 -29.89176
1069000000 -36.91362 36.893532 -0.50158948 102.86339 -0.49879614 102.86518 -34.677643 -33.712269
1070000000 -36.943703 31.616184 -0.49773699 101.33077 -0.49906239 101.27437 -35.090141 -35.22303
1071000000 -37.948257 33.513168 -0.49874908 99.72805 -0.50070047 99.727402 -35.276524 -36.206169
1072000000 -38.370544 33.908112 -0.50087738 98.154404 -0.50442356 98.116661 -35.386547 -37.403385
1073000000 -38.572014 36.99345 -0.4930101 96.487373 -0.49769375 96.516098 -35.951363 -40.012596
1074000000 -38.99799 35.621735 -0.49978259 95.002861 -0.4964245 94.94915 -36.45203 -42.928608
1075000000 -40.114349 31.379381 -0.50282913 93.359451 -0.49471405 93.358437 -36.877594 -43.205399
1076000000 -40.9617 31.537128 -0.50514728 91.784004 -0.4927358 91.732475 -37.355732 -47.326893
1077000000 -42.355534 35.777496 -0.50562274 90.165161 -0.50038469 90.160324 -37.469189 -46.931782
1078000000 -42.251747 33.826866 -0.50455642 88.583923 -0.50328577 88.635597 -38.085232 -53.800644
1079000000 -42.209618 30.842632 -0.50238621 87.028175 -0.49962199 87.015297 -38.282963 -54.490936
1080000000 -44.320049 34.564682 -0.49761972 85.416183 -0.49804068 85.386276 -38.703022 -56.272102
1081000000 -45.329456 42.455254 -0.49717969 83.840805 -0.49912483 83.810669 -39.497074 -62.175247
1082000000 -45.446388 37.660278 -0.50132507 82.227417 -0.49397469 82.270363 -39.916023 -62.20105
1083000000 -47.505215 45.895889 -0.50536186 80.655594 -0.50260538 80.690735 -41.230556 -64.758293
1084000000 -49.414783 57.962502 -0.49882138 79.061234 -0.49607858 79.051849 -42.066925 -64.412552
1085000000 -49.035564 63.349262 -0.4988057 77.465332 -0.50428253 77.468979 -42.746967 -68.546585
1086000000 -50.111919 78.496246 -0.49722961 75.876816 -0.50103569 75.913963 -45.352741 -74.895401
1087000000 -51.651211 99.295425 -0.50723302 74.3181 -0.4991048 74.346176 -46.493683 -81.907837
1088000000 -49.894299 105.78319 -0.50958526 72.71949 -0.50191748 72.785606 -46.348011 -81.323601
1089000000 -48.152271 108.2984 -0.50335461 71.107773 -0.5020808 71.158829 -47.31142 -86.937233
1090000000 -48.317261 115.94926 -0.50395316 69.567955 -0.50583565 69.525261 -50.102661 -103.48178
1091000000 -45.892277 131.6129 -0.49866691 67.924835 -0.50513828 67.952721 -52.035454 -121.42168
1092000000 -45.01276 132.29189 -0.50354791 66.374878 -0.50100404 66.41864 -53.507866 -124.73909
1093000000 -44.176468 130.80138 -0.50719434 64.781853 -0.50469047 64.835373 -54.829899 -147.24838
1094000000 -43.549885 135.35806 -0.50695783 63.232841 -0.5011853 63.214981 -53.156185 -172.82233
1095000000 -42.202934 140.85631 -0.50838757 61.610088 -0.50327438 61.607052 -51.568508 172.05881
1096000000 -41.320366 141.4404 -0.51252389 60.027023 -0.50617594 60.033401 -50.519817 148.14024
1097000000 -40.609104 136.62851 -0.51378971 58.468723 -0.50170857 58.460499 -50.03672 134.44537
1098000000 -39.743168 143.39294 -0.50309187 56.832596 -0.51006937 56.900421 -48.089989 127.59383
1099000000 -39.567509 138.06819 -0.50386131 55.254204 -0.50200903 55.285244 -46.308899 125.20287
1100000000 -38.684402 138.8631 -0.49868956 53.645035 -0.49916664 53.644474 -45.094849 121.69269
1101000000 -38.188786 138.51262 -0.50308287 52.110958 -0.50327384 52.133213 -43.988682 117.44968
1102000000 -37.909721 142.83604 -0.5025205 50.455151 -0.5014782 50.498417 -43.607208 111.44289
1103000000 -37.654613 138.06693 -0.50743055 48.905563 -0.50517344 48.952419 -42.319302 110.14217
1104000000 -36.83012 138.93127 -0.51206368 47.316414 -0.5096935 47.371151 -40.568497 104.71769
1105000000 -36.489666 138.16312 -0.5084222 45.764046 -0.50833809 45.713448 -40.762783 101.27435
1106000000 -36.223724 137.55084 -0.51245427 44.165634 -0.51002771 44.155437 -39.379963 97.635475
1107000000 -35.747456 135.88742 -0.50882238 42.590343 -0.51333344 42.598721 -39.059425 98.724754
1108000000 -35.445026 132.55281 -0.50670034 40.995972 -0.5098877 41.041752 -38.65287 96.674271
1109000000 -35.022202 133.38051 -0.51160645 39.411964 -0.50295061 39.40535 -38.070854 93.063423
1110000000 -34.822456 131.61656 -0.51493871 37.779255 -0.50232112 37.797012 -37.692215 90.497726
1111000000 -34.587261 131.1626 -0.51314205 36.22525 -0.51052409 36.212887 -37.102863 87.705391
1112000000 -34.101688 130.25357 -0.51001638 34.648922 -0.5127033 34.633827 -36.581146 87.734352
1113000000 -33.828232 129.43387 -0.50645107 33.031044 -0.51609766 33.07085 -36.260944 85.170837
1114000000 -33.812191 127.70272 -0.50972265 31.452072 -0.50569022 31.497837 -35.913582 83.696449
1115000000 -33.392555 126.26486 -0.50620675 29.833523 -0.50759178 29.858538 -35.76339 82.933182
1116000000 -33.216366 125.46973 -0.50313544 28.284847 -0.51044255 28.334192 -35.242016 79.076813
1117000000 -33.177288 125.19144 -0.50707185 26.693468 -0.50961322 26.729427 -34.945309 78.06031
1118000000 -32.879971 121.45404 -0.50703955 25.144588 -0.5110907 25.125467 -34.488209 74.527008
1119000000 -32.630142 120.64002 -0.50835818 23.503288 -0.51395053 23.5397 -34.401691 72.838837
1120000000 -32.360268 119.80209 -0.51095533 21.973593 -0.5086754 21.91979 -34.148502 71.70591
1121000000 -32.319809 117.43105 -0.51325768 20.394674 -0.50533223 20.363531 -33.907299 69.84433
1122000000 -32.363308 116.84611 -0.51631397 18.738552 -0.50872809 18.795584 -33.724583 66.771217
1123000000 -32.161766 116.0033 -0.50933027 17.171335 -0.51614225 17.200983 -33.234173 66.095604
1124000000 -32.053547 115.11649 -0.51918393 15.596498 -0.51612622 15.61934 -33.118156 64.034599
1125000000 -31.921989 114.76781 -0.5154202 14.061234 -0.51400501 14.060304 -32.844803 61.835159
1126000000 -31.69903 111.77367 -0.51712221 12.459255 -0.51848853 12.473257 -32.809383 60.112652
1127000000 -31.600384 112.00431 -0.51786411 10.878028 -0.51046032 10.900832 -32.582703 58.091175
1128000000 -31.648392 109.84927 -0.518408 9.2557039 -0.52370608 9.2931976 -32.399128 55.882252
1129000000 -31.36755 108.12506 -0.51826566 7.6657357 -0.51185572 7.6832089 -32.26096 55.860363
1130000000 -31.254869 106.63983 -0.515104 6.126246 -0.51200688 6.1087794 -32.329193 53.297836
1131000000 -31.334473 105.06123 -0.52015615 4.5229039 -0.51768178 4.4872942 -32.087433 50.815182
1132000000 -31.203014 105.01942 -0.52184802 2.9260962 -0.50485271 2.8745718 -31.758974 49.746578
1133000000 -31.053339 102.95033 -0.52131498 1.3397481 -0.51135719 1.3675082 -31.835491 48.56398
1134000000 -31.100996 101.44882 -0.51873499 -0.21813622 -0.52309084 -0.23593685 -31.573898 47.713516
1135000000 -31.031506 100.35307 -0.52295214 -1.7837554 -0.51461202 -1.8488475 -31.430346 43.801144
1136000000 -31.106049 98.347015 -0.52007121 -3.3786027 -0.51212281 -3.4276624 -31.466776 43.839371
1137000000 -30.959322 97.625732 -0.51568288 -4.9864635 -0.51723182 -4.9881516 -31.23587 40.172966
1138000000 -30.900866 96.217972 -0.52223158 -6.5195298 -0.51702279 -6.5923309 -31.185005 40.379345
1139000000 -30.881334 94.432785 -0.51874495 -8.1642895 -0.51582366 -8.1782103 -31.234777 38.705608
1140000000 -30.944136 93.231888 -0.51274675 -9.7931252 -0.51059312 -9.7514114 -30.922123 35.673222
1141000000 -30.830666 93.291603 -0.52336067 -11.305903 -0.5129084 -11.336643 -30.97912 33.392818
1142000000 -30.827761 91.806511 -0.52152342 -12.961306 -0.51500899 -12.905602 -30.81534 31.891024
1143000000 -31.07412 89.721535 -0.53237242 -14.537938 -0.51246566 -14.498708 -30.912889 30.086527
1144000000 -31.032066 88.592087 -0.52130973 -16.122046 -0.51810294 -16.064285 -30.637053 27.803017
1145000000 -30.864126 87.516411 -0.51327491 -17.669748 -0.51511419 -17.664436 -30.748142 26.29777
1146000000 -30.873356 85.597733 -0.52329028 -19.241283 -0.52007061 -19.263432 -30.845364 24.941444
1147000000 -30.83787 85.180832 -0.52781171 -20.832355 -0.52491558 -20.837498 -30.907627 23.39098
1148000000 -30.837257 83.316429 -0.52641821 -22.431879 -0.51796502 -22.46069 -30.590204 21.293249
1149000000 -31.034403 82.497704 -0.52874196 -23.97312 -0.51231331 -24.022627 -30.625843 18.649597
1150000000 -31.029446 80.653358 -0.52478737 -25.585936 -0.51402718 -25.613453 -30.555292 19.483797
1151000000 -30.865911 78.598976 -0.52493811 -27.140965 -0.5109061 -27.225172 -30.497002 16.855576
1152000000 -31.033209 78.684418 -0.52858466 -28.763958 -0.51581782 -28.843798 -30.803423 14.338604
1153000000 -30.955788 76.628777 -0.52358085 -30.337238 -0.50989848 -30.360559 -30.741961 13.657171
1154000000 -31.225595 75.228439 -0.52674347 -31.899179 -0.51905793 -31.930605 -30.819746 10.823081
1155000000 -31.321577 74.790459 -0.52285463 -33.490257 -0.51629996 -33.525803 -30.691006 9.6244812
1156000000 -31.283934 73.445114 -0.52825516 -35.066059 -0.52518874 -35.124584 -30.679579 7.7607965
1157000000 -31.446629 72.138908 -0.5272184 -36.679722 -0.51796675 -36.726372 -31.015799 4.7690902
1158000000 -31.496773 69.284569 -0.52945542 -38.299435 -0.51188195 -38.29829 -30.783901 3.8099444
1159000000 -31.590693 67.913216 -0.52797657 -39.862457 -0.51245922 -39.884136 -30.856537 1.5655212
1160000000 -31.69342 67.710281 -0.52136987 -41.447449 -0.51141423 -41.507118 -31.040442 -0.77849603
1161000000 -31.657375 67.586143 -0.51708108 -43.040638 -0.51873648 -43.081821 -31.197058 -2.3556175
1162000000 -31.968983 64.962952 -0.52353847 -44.617943 -0.51396132 -44.648502 -31.332241 -5.5769949
1163000000 -32.164383 64.54039 -0.52940923 -46.167969 -0.51615483 -46.258095 -31.246082 -7.1987157
1164000000 -32.182228 62.408192 -0.51700789 -47.820095 -0.52149248 -47.757858 -31.502388 -6.6952305
1165000000 -32.204597 61.411739 -0.52531087 -49.38195 -0.51865214 -49.38715 -31.441826 -9.5194149
1166000000 -32.519562 61.333378 -0.52306044 -51.013454 -0.51710528 -50.949795 -31.665958 -11.225858
1167000000 -32.50182 59.513531 -0.52950627 -52.601967 -0.51783961 -52.5769 -31.506208 -12.567463
1168000000 -32.791023 58.417583 -0.52040446 -54.124428 -0.52141631 -54.152348 -31.704927 -14.372955
1169000000 -32.953449 56.822258 -0.53109944 -55.738556 -0.5193345 -55.758133 -31.903448 -16.510561
1170000000 -33.28371 54.039135 -0.53543514 -57.333462 -0.51131642 -57.332649 -31.919901 -17.681305
1171000000 -33.48241 53.845001 -0.52968645 -58.910831 -0.52027345 -58.937431 -32.128635 -20.886429
1172000000 -33.373665 53.071102 -0.52837443 -60.453491 -0.51504946 -60.479603 -32.055206 -20.796951
1173000000 -33.680294 53.166115 -0.53199935 -62.074638 -0.51633 -62.07653 -32.177521 -22.381573
1174000000 -33.647148 52.489479 -0.5235461 -63.639408 -0.52276117 -63.667397 -32.383034 -23.361549
1175000000 -34.382507 50.437794 -0.52928466 -65.221519 -0.50906712 -65.304718 -32.608963 -27.126816
1176000000 -34.686455 48.443085 -0.52492291 -66.784767 -0.52431005 -66.881264 -32.766502 -26.524815
1177000000 -34.680412 47.626163 -0.52758723 -68.445213 -0.51901478 -68.419594 -32.904545 -30.078453
1178000000 -35.064827 47.190434 -0.52814585 -70.025299 -0.5208658 -70.023277 -32.86187 -31.846157
1179000000 -35.307793 46.539429 -0.52388424 -71.599915 -0.5177865 -71.611504 -33.616661 -35.430779
1180000000 -35.67878 44.740784 -0.52174348 -73.171242 -0.52626216 -73.192085 -33.62479 -35.804176
1181000000 -35.929562 45.106297 -0.53045034 -74.749969 -0.52728736 -74.775742 -33.850979 -37.241886
1182000000 -36.452423 44.675884 -0.5310424 -76.344635 -0.52280849 -76.371223 -34.478447 -39.303036
1183000000 -36.493752 42.400471 -0.52504182 -77.944572 -0.52973646 -77.943665 -34.425808 -39.112995
1184000000 -37.0098 41.5322 -0.52238077 -79.545799 -0.52494687 -79.499168 -34.223713 -41.765255
1185000000 -37.481888 42.162426 -0.53255296 -81.146217 -0.52211332 -81.109383 -34.892326 -42.347778
1186000000 -37.732418 40.729134 -0.52924341 -82.687744 -0.52419353 -82.747223 -35.367744 -44.849762
1187000000 -38.377983 39.237431 -0.5267601 -84.285637 -0.52115506 -84.268219 -35.06963 -48.624638
1188000000 -38.957661 38.46365 -0.52806461 -85.915787 -0.518686 -85.906792 -36.091427 -50.423321
1189000000 -39.842125 38.168411 -0.52637029 -87.498047 -0.51756281 -87.444153 -36.569038 -51.677132
1190000000 -40.49081 43.32172 -0.53098917 -89.086014 -0.51777893 -89.031204 -36.891167 -54.640942
1191000000 -40.634727 43.435596 -0.52774394 -90.621193 -0.52570933 -90.630424 -36.908302 -56.644871
1192000000 -41.657043 39.406391 -0.52511889 -92.178009 -0.51985031 -92.232849 -37.426403 -55.448364
1193000000 -42.482922 39.391277 -0.5192464 -93.837517 -0.52245927 -93.84124 -37.738644 -58.758774
1194000000 -43.137184 43.928436 -0.52348155 -95.428925 -0.52462667 -95.411102 -38.626698 -63.684799
1195000000 -43.579433 44.798927 -0.5342564 -96.981407 -0.53240639 -96.958191 -39.590481 -62.778709
1196000000 -45.757782 47.091862 -0.53096455 -98.576668 -0.52528983 -98.552597 -40.180534 -64.681625
1197000000 -46.085419 55.738461 -0.5256474 -100.14668 -0.52854049 -100.09319 -40.557552 -68.69516
1198000000 -46.383873 57.508644 -0.52703422 -101.77522 -0.51580703 -101.75403 -40.808979 -74.283714
1199000000 -49.126896 71.39798 -0.52605206 -103.29695 -0.52218574 -103.35454 -41.307434 -74.84687
1200000000 -47.71801 79.234154 -0.5298692 -104.91614 -0.53010666 -104.86205 -42.761604 -76.139557
1201000000 -47.548817 88.469208 -0.53032339 -106.49974 -0.53063488 -106.45004 -43.610035 -78.350716
