!Keysight Technologies,N5232B,MY63057082,A.15.71.11
!Date: Thursday, April 03, 2025 04:25:03
!Correction: S11(C  2-Port  ) 
!S21(C  2-Port  ) 
!S12(C  2-Port  ) 
!S22(C  2-Port  ) 
!S2P File: Measurements: S11, S21, S12, S22:
# Hz S  dB   R 50
1000000000 -5.8777666 -133.29021 -49.883804 -95.013039 -49.813278 -96.405197 -20.132145 164.62535
1001000000 -5.8657856 -136.81122 -49.605343 -97.929756 -49.696163 -99.29425 -20.126196 164.6618
1002000000 -5.8523431 -140.25385 -50.180058 -100.6675 -49.878105 -100.58043 -20.090214 164.68889
1003000000 -5.8491349 -143.72081 -50.043667 -101.7373 -49.80666 -100.01208 -20.084736 164.53415
1004000000 -5.8359056 -147.13814 -50.395367 -102.97915 -50.009007 -104.01327 -20.08704 164.43062
1005000000 -5.8224182 -150.57082 -50.117481 -106.33013 -50.565056 -107.03519 -20.037535 164.38257
1006000000 -5.805799 -153.99945 -50.135208 -109.28233 -50.127396 -106.62989 -20.013853 164.17943
1007000000 -5.7949057 -157.43413 -49.71442 -109.21893 -49.955891 -110.04372 -20.013233 164.36682
1008000000 -5.7770414 -160.82025 -50.249378 -112.21224 -49.936359 -112.30428 -20.002647 164.00758
1009000000 -5.7559872 -164.23395 -50.05978 -114.31221 -49.735195 -114.72938 -19.983541 164.01952
1010000000 -5.7496271 -167.62961 -49.897709 -116.35107 -50.043179 -116.19128 -19.991545 163.97415
1011000000 -5.7289538 -171.03876 -49.729176 -121.4618 -50.051193 -115.8355 -19.959097 163.80539
1012000000 -5.705893 -174.34482 -50.016224 -119.16901 -49.515423 -118.04971 -19.939589 163.97508
1013000000 -5.6940947 -177.68307 -50.08614 -124.28916 -49.781609 -122.63615 -19.914495 163.72598
1014000000 -5.6877723 178.98064 -49.909271 -124.48992 -49.908245 -123.90545 -19.90168 163.76347
1015000000 -5.668808 175.6275 -49.918915 -126.6893 -49.97591 -125.41671 -19.877403 163.67563
1016000000 -5.6562552 172.24538 -50.244423 -125.00352 -49.939152 -129.18364 -19.868626 163.44038
1017000000 -5.6446609 168.97157 -50.170238 -128.85742 -49.634605 -128.95816 -19.848459 163.43881
1018000000 -5.6171718 165.69643 -50.295906 -133.72432 -49.924503 -129.9142 -19.833326 163.41815
1019000000 -5.6033425 162.39589 -50.170834 -132.33044 -49.904697 -133.52017 -19.802574 163.17801
1020000000 -5.5886726 159.18761 -49.896854 -136.87965 -49.90789 -134.71402 -19.778736 163.24019
1021000000 -5.5837889 155.93304 -49.447689 -138.40846 -50.254677 -136.66728 -19.782972 163.09717
1022000000 -5.5578532 152.63034 -49.869667 -140.25024 -50.34737 -139.21602 -19.770641 162.942
1023000000 -5.548543 149.38715 -50.304356 -142.64598 -50.261276 -141.05312 -19.765181 162.87218
1024000000 -5.5311131 146.09271 -50.506683 -144.97597 -50.066269 -143.85428 -19.717901 162.91365
1025000000 -5.5277205 142.86411 -49.641884 -146.22365 -49.886478 -145.72583 -19.741636 162.79781
1026000000 -5.5078278 139.67691 -49.984505 -144.76639 -49.695206 -147.03592 -19.707264 162.81165
1027000000 -5.4973745 136.4502 -49.753567 -147.43272 -49.766045 -148.44559 -19.680206 162.58868
1028000000 -5.4949489 133.23497 -49.949329 -148.64371 -50.028652 -151.06584 -19.665974 162.56909
1029000000 -5.4738331 130.07065 -50.075603 -152.76257 -49.887623 -152.63231 -19.669264 162.42534
1030000000 -5.4618177 126.88335 -49.833176 -156.36046 -49.696709 -152.69328 -19.646696 162.35516
1031000000 -5.461534 123.6629 -50.030598 -156.57034 -49.883377 -158.59683 -19.625406 162.40765
1032000000 -5.4450927 120.43893 -49.684444 -158.84712 -49.897957 -157.83727 -19.631973 162.25572
1033000000 -5.441535 117.30232 -49.684769 -161.25175 -49.648335 -160.58705 -19.586575 162.00815
1034000000 -5.4246316 114.08793 -50.178062 -160.90012 -49.941933 -161.58046 -19.576468 161.90828
1035000000 -5.4274263 110.86302 -49.70533 -163.12767 -50.051987 -161.63145 -19.561829 161.99446
1036000000 -5.4173412 107.69435 -50.13456 -169.11948 -49.921242 -168.59879 -19.5502 161.8877
1037000000 -5.4084234 104.528 -50.113876 -169.6954 -50.106232 -171.30377 -19.535309 161.74747
1038000000 -5.4122901 101.42258 -49.91861 -171.84723 -49.557991 -169.11894 -19.537586 161.66557
1039000000 -5.405333 98.205513 -50.03167 -172.54974 -50.290722 -173.94275 -19.507658 161.52852
1040000000 -5.4013748 95.021736 -49.726543 -175.99017 -49.765476 -174.93256 -19.488581 161.45535
1041000000 -5.4042106 91.877762 -49.778084 -176.73427 -49.683159 -178.95831 -19.481577 161.35716
1042000000 -5.3980036 88.701416 -49.998589 -175.83554 -49.611893 -177.55341 -19.447229 161.21747
1043000000 -5.4010086 85.546669 -49.944386 179.702 -50.260754 179.41826 -19.446991 161.35143
1044000000 -5.4124489 82.290924 -50.111046 -179.52611 -49.829166 -179.76926 -19.438042 160.99847
1045000000 -5.405539 79.147614 -49.70871 174.67961 -49.820362 174.47272 -19.403925 161.08266
1046000000 -5.4101663 75.95565 -49.535652 174.15685 -49.63773 174.95049 -19.40799 160.95015
1047000000 -5.4130735 72.799011 -49.91967 170.22685 -49.77021 170.6626 -19.383488 160.77017
1048000000 -5.4184632 69.588608 -49.933125 171.00375 -49.674316 170.12148 -19.377478 160.67732
1049000000 -5.4238472 66.377251 -49.876984 168.28151 -49.731369 169.54703 -19.364651 160.57861
1050000000 -5.4266801 63.169666 -50.003666 167.76285 -49.97974 168.42448 -19.339811 160.53906
1051000000 -5.4328971 59.964943 -49.844593 162.82147 -49.662354 164.05956 -19.315193 160.3665
1052000000 -5.4448695 56.829052 -49.977676 164.27139 -49.691135 165.1227 -19.328005 160.38142
1053000000 -5.4453893 53.593281 -50.317696 157.84181 -49.702374 162.71611 -19.28083 160.16266
1054000000 -5.4611273 50.34602 -50.246998 162.09869 -50.039337 158.89146 -19.268654 160.11401
1055000000 -5.4678206 47.05883 -49.918606 157.94173 -49.94957 157.43549 -19.266569 160.0968
1056000000 -5.4843574 43.870155 -49.69175 156.30635 -49.686695 155.52376 -19.250511 159.87999
1057000000 -5.492229 40.625797 -49.652073 152.81288 -50.029552 151.81186 -19.209972 159.78789
1058000000 -5.5075932 37.357758 -49.925621 151.96577 -49.949543 150.63794 -19.216978 159.74672
1059000000 -5.5209832 34.10957 -49.331215 150.23013 -49.577785 148.31203 -19.194984 159.7281
1060000000 -5.5455604 30.804276 -49.395569 148.27921 -49.485603 146.54504 -19.201813 159.3696
1061000000 -5.5498872 27.495167 -49.662975 145.42317 -50.020546 142.70549 -19.160858 159.3909
1062000000 -5.5645213 24.234518 -49.693096 146.054 -50.011993 140.41159 -19.163918 159.49429
1063000000 -5.585093 20.887308 -49.487347 141.68393 -49.417824 140.90036 -19.148426 159.35593
1064000000 -5.593503 17.642492 -49.422047 139.04123 -49.850391 136.58438 -19.140577 159.20122
1065000000 -5.6071219 14.295897 -49.409351 139.16066 -49.875408 137.31625 -19.105213 158.97325
1066000000 -5.6231961 10.90654 -49.321049 133.97377 -49.342964 134.52364 -19.091677 159.0377
1067000000 -5.6398702 7.5467033 -49.605465 131.00764 -49.697849 133.44774 -19.093346 158.8828
1068000000 -5.6584487 4.1523104 -49.444954 131.15788 -49.764202 132.0127 -19.064785 158.68086
1069000000 -5.6764779 0.7951619 -49.627266 128.18575 -49.494537 129.29829 -19.05302 158.70735
1070000000 -5.7000389 -2.597522 -49.726494 128.10001 -49.887829 129.91693 -19.035234 158.6407
1071000000 -5.7152061 -5.9754038 -49.782154 124.81039 -49.252857 126.28908 -19.021513 158.44557
1072000000 -5.7327347 -9.3358431 -49.590164 121.09763 -49.455734 120.6159 -19.00629 158.24614
1073000000 -5.7591739 -12.776719 -49.561893 119.57786 -49.19635 118.97586 -18.971722 158.2108
1074000000 -5.774425 -16.19124 -49.196651 118.68114 -49.627655 119.26072 -18.954306 158.33356
1075000000 -5.7902265 -19.608366 -50.015537 117.07364 -49.545071 117.73693 -18.955515 158.07881
1076000000 -5.8055139 -23.084768 -49.675953 113.92022 -49.319881 113.67992 -18.939829 157.99896
1077000000 -5.8196783 -26.535965 -49.395966 113.93616 -49.252506 114.37348 -18.911076 157.90071
1078000000 -5.8389988 -30.017296 -49.19342 113.10895 -49.431873 112.4375 -18.910198 157.82932
1079000000 -5.8617139 -33.512539 -49.187458 111.93207 -49.340466 113.76897 -18.898355 157.64291
1080000000 -5.8758402 -37.054504 -49.601589 105.77963 -49.604443 109.61784 -18.879673 157.48778
1081000000 -5.8926077 -40.504448 -49.299076 104.98287 -49.410675 103.47025 -18.862574 157.51138
1082000000 -5.9110909 -44.000305 -49.261017 103.83685 -49.389889 100.86135 -18.865044 157.38884
1083000000 -5.9272156 -47.524067 -49.88488 101.94443 -49.613174 101.22644 -18.846701 157.35036
1084000000 -5.9401779 -51.116703 -49.490223 99.740494 -49.432873 97.926392 -18.817549 157.1638
1085000000 -5.9472752 -54.641712 -49.51041 97.196861 -49.701157 96.531197 -18.794323 156.98145
1086000000 -5.9630141 -58.181267 -49.421001 93.9011 -49.772541 95.49437 -18.759602 156.95805
1087000000 -5.9793754 -61.691589 -49.253864 93.842545 -49.390858 92.714867 -18.756561 157.06241
1088000000 -5.9790955 -65.259132 -49.338039 91.841499 -49.633419 93.654793 -18.764914 156.70959
1089000000 -5.9845204 -68.850647 -49.293697 88.898796 -49.320992 89.92791 -18.740389 156.71916
1090000000 -5.9931607 -72.343193 -49.407379 85.750877 -49.347282 89.55925 -18.727535 156.56989
1091000000 -5.9945092 -75.984352 -49.248402 86.98761 -49.357155 84.589012 -18.703758 156.47725
1092000000 -6.0030956 -79.498138 -49.986153 80.569473 -49.427979 81.129242 -18.704462 156.37729
1093000000 -6.0147204 -83.080254 -49.483505 79.148529 -49.280998 80.869957 -18.672478 156.23553
1094000000 -6.0112195 -86.605331 -49.106918 78.10955 -49.605457 79.44416 -18.673096 156.17998
1095000000 -6.0144939 -90.207748 -49.133835 78.429848 -49.682159 75.145332 -18.646976 156.02086
1096000000 -6.0076442 -93.731628 -49.011047 74.777359 -49.358799 73.172195 -18.595387 155.90027
1097000000 -6.0107555 -97.339111 -49.592304 72.208183 -49.485413 71.259712 -18.624109 155.92259
1098000000 -6.0063944 -100.89412 -49.434566 69.9692 -49.188251 70.010536 -18.606009 155.69797
1099000000 -6.0079188 -104.52568 -49.148483 66.632149 -49.57637 68.858925 -18.595087 155.69229
1100000000 -5.9995742 -107.98922 -48.892548 64.156143 -49.21619 68.488617 -18.577999 155.51399
1101000000 -5.9887838 -111.46622 -49.048664 63.714989 -49.232292 65.69796 -18.557516 155.39894
1102000000 -5.9906244 -114.97832 -49.26815 63.686291 -49.607101 61.889172 -18.545124 155.2993
1103000000 -5.9722075 -118.59522 -49.031158 63.047421 -49.215511 62.880764 -18.522427 155.08229
1104000000 -5.9678073 -122.10696 -49.47221 58.848522 -49.25169 58.368385 -18.497318 155.1956
1105000000 -5.9529834 -125.58276 -49.097294 58.023598 -49.048553 55.184704 -18.49305 154.93192
1106000000 -5.9460454 -129.12 -49.35392 56.027702 -49.090771 55.163074 -18.469988 154.80901
1107000000 -5.9303522 -132.58676 -49.231056 49.687771 -49.250809 54.254436 -18.46693 154.78864
1108000000 -5.9191389 -136.02763 -49.233646 47.793369 -49.120827 53.603973 -18.447769 154.71109
1109000000 -5.8986292 -139.54491 -49.318386 48.92836 -49.208546 49.154812 -18.427254 154.69472
1110000000 -5.8859448 -142.97571 -49.697754 48.18322 -49.349453 47.501713 -18.429998 154.46974
1111000000 -5.8703718 -146.4313 -49.473175 41.732845 -49.449493 45.391556 -18.399977 154.42444
1112000000 -5.8602195 -149.88803 -49.202282 41.411327 -49.400059 41.154182 -18.394886 154.37419
1113000000 -5.8420949 -153.27464 -49.273041 40.934814 -49.360126 42.334953 -18.373934 154.25606
1114000000 -5.8230019 -156.65709 -49.583115 39.711143 -49.42577 38.929188 -18.368849 154.00975
1115000000 -5.8069186 -160.0414 -49.458496 38.338436 -49.227478 38.476864 -18.344044 153.98015
1116000000 -5.7889838 -163.44495 -49.350697 35.587971 -49.357685 34.463299 -18.320148 153.90895
1117000000 -5.7691731 -166.87207 -49.288433 31.206806 -49.338703 33.815281 -18.326698 153.71901
1118000000 -5.7512302 -170.15726 -49.329216 32.014717 -49.35025 31.314339 -18.305824 153.642
1119000000 -5.733427 -173.49797 -49.38905 29.817406 -48.949409 29.647232 -18.266115 153.5992
1120000000 -5.7194357 -176.82393 -49.032085 28.560331 -49.482265 26.101561 -18.278376 153.53658
1121000000 -5.6975899 179.89603 -49.528965 25.617533 -49.388744 23.961304 -18.265163 153.41197
1122000000 -5.6760235 176.53235 -49.184032 23.455856 -49.059319 21.689079 -18.246582 153.25482
1123000000 -5.6631756 173.28622 -49.265297 22.524464 -49.322079 21.527605 -18.250063 153.05586
1124000000 -5.6391683 169.94402 -49.503963 18.484219 -49.563843 18.418226 -18.206903 153.01608
1125000000 -5.6237206 166.67966 -49.140255 17.554155 -49.318913 16.098972 -18.203304 152.89029
1126000000 -5.6121449 163.39908 -49.083565 16.04019 -49.269882 15.167239 -18.186481 152.8569
1127000000 -5.5892496 160.17752 -49.468128 14.47493 -49.071159 14.994864 -18.171864 152.79359
1128000000 -5.5752177 156.93663 -49.310188 13.765073 -49.084431 11.31169 -18.169588 152.51614
1129000000 -5.565186 153.71968 -49.096447 9.1166363 -49.00856 11.099346 -18.162918 152.46362
1130000000 -5.5466638 150.44057 -49.049671 5.042335 -49.36705 8.2886276 -18.138605 152.43604
1131000000 -5.5321994 147.22656 -49.523727 6.4709339 -49.302032 6.7680864 -18.123394 152.21295
1132000000 -5.5178542 144.0303 -49.255962 2.0813699 -49.355888 6.8341923 -18.107388 152.20872
1133000000 -5.498445 140.83405 -49.42094 -0.34464014 -49.550606 3.0874307 -18.081953 152.0611
1134000000 -5.4962668 137.67349 -49.220448 -1.1227875 -49.242855 0.8521449 -18.098875 151.85535
1135000000 -5.487186 134.4848 -49.560589 -2.7668812 -49.119946 -1.564978 -18.07745 151.84154
1136000000 -5.4726052 131.32906 -49.253628 -2.8531303 -49.646656 -4.171278 -18.044361 151.67245
1137000000 -5.4564366 128.13942 -48.877075 -4.1778073 -49.126339 -5.9001551 -18.048904 151.77574
1138000000 -5.4496984 124.95975 -49.245491 -7.3588176 -49.00769 -6.8507466 -18.048534 151.46959
1139000000 -5.4454646 121.80826 -49.320404 -9.2496367 -49.519543 -8.3199453 -18.01704 151.40283
1140000000 -5.4379959 118.68233 -49.387516 -10.579288 -49.191376 -10.327866 -17.993231 151.35605
1141000000 -5.4346476 115.48045 -49.246532 -13.067039 -49.162979 -12.322773 -17.98576 151.24582
1142000000 -5.425426 112.38804 -49.160915 -16.350565 -49.351921 -16.888245 -17.983603 151.12227
1143000000 -5.4182358 109.20892 -49.238197 -16.583754 -49.614208 -15.635603 -17.976336 150.9384
1144000000 -5.4048486 106.02149 -49.444077 -18.401402 -49.322075 -19.247444 -17.963964 150.98264
1145000000 -5.4076514 102.84756 -49.069656 -20.585999 -49.359131 -22.467075 -17.947365 150.74393
1146000000 -5.4112587 99.721367 -49.316723 -21.681175 -49.215569 -19.789068 -17.943258 150.53496
1147000000 -5.4102669 96.547554 -49.41338 -24.115084 -49.036438 -24.598915 -17.911213 150.51627
1148000000 -5.4105072 93.397835 -49.336819 -28.875229 -49.595627 -29.476484 -17.911823 150.44792
1149000000 -5.4143729 90.254051 -49.406586 -29.025726 -49.355263 -28.510008 -17.892805 150.49409
1150000000 -5.4122815 87.100571 -49.364014 -29.991323 -49.533276 -31.775625 -17.875515 150.20406
1151000000 -5.4311485 83.977318 -48.986385 -32.177299 -49.28056 -30.793945 -17.859343 150.086
1152000000 -5.4274068 80.808876 -48.6008 -34.331203 -49.420307 -32.987934 -17.858742 150.0323
1153000000 -5.4369316 77.613808 -49.260086 -37.635674 -49.433926 -37.387115 -17.849464 149.90616
1154000000 -5.4384747 74.507599 -49.682304 -38.040218 -49.386024 -39.467937 -17.832514 149.80446
1155000000 -5.4377608 71.30162 -49.346539 -40.860672 -49.378765 -43.176437 -17.822756 149.7002
1156000000 -5.4508576 68.09951 -49.251957 -42.328255 -49.35051 -41.223278 -17.807899 149.55434
1157000000 -5.4606748 64.986023 -49.422966 -47.293892 -49.057613 -45.071182 -17.781485 149.49739
1158000000 -5.4757609 61.792763 -49.502243 -46.316559 -49.165279 -49.284218 -17.77458 149.25235
1159000000 -5.4815502 58.594875 -49.399738 -45.179619 -49.216774 -49.290138 -17.755272 149.20995
1160000000 -5.4923792 55.349224 -48.961441 -51.046791 -49.339268 -49.076664 -17.738586 149.21054
1161000000 -5.4962754 52.10725 -48.956848 -52.791901 -49.169998 -50.11562 -17.72617 149.17262
1162000000 -5.5064783 48.898689 -49.02742 -52.223598 -49.39642 -52.802811 -17.717983 149.09778
1163000000 -5.5248528 45.6828 -49.112301 -55.735394 -49.468204 -58.722328 -17.729998 148.88223
1164000000 -5.5426435 42.422131 -48.934322 -59.608467 -49.530727 -55.833195 -17.709032 148.75443
1165000000 -5.5536728 39.191772 -48.85685 -59.884865 -49.315826 -63.158035 -17.708685 148.65704
1166000000 -5.576107 35.899033 -49.216511 -60.242336 -48.896111 -61.21114 -17.683796 148.56688
1167000000 -5.5960183 32.65416 -49.389137 -63.382736 -49.185074 -64.271362 -17.685581 148.34203
1168000000 -5.6099353 29.415487 -49.023666 -68.04528 -49.200504 -64.219513 -17.66851 148.19711
1169000000 -5.6194692 26.116648 -48.377193 -67.883087 -48.928402 -66.799446 -17.64995 148.24988
1170000000 -5.6376486 22.833897 -48.725632 -70.72216 -49.171005 -70.126389 -17.647341 148.00165
1171000000 -5.657455 19.505007 -48.89399 -73.945374 -49.034252 -71.718582 -17.622478 147.89302
1172000000 -5.6743193 16.225039 -48.971016 -74.500351 -48.917164 -74.460152 -17.615149 147.76321
1173000000 -5.6915436 12.857626 -49.014545 -74.312927 -48.934933 -75.404839 -17.609299 147.62767
1174000000 -5.7169709 9.4770794 -49.037304 -76.460724 -49.076649 -76.200905 -17.598455 147.57225
1175000000 -5.7346845 6.1598344 -48.954506 -80.890121 -48.617996 -78.837372 -17.571028 147.49771
1176000000 -5.7452679 2.8323903 -48.801956 -82.149651 -48.913029 -80.514099 -17.579485 147.31706
1177000000 -5.7647376 -0.5754618 -49.135139 -83.438934 -49.092735 -82.901756 -17.569942 147.30542
1178000000 -5.7943163 -3.9580097 -49.012363 -85.71579 -49.37912 -88.533653 -17.567682 147.06691
1179000000 -5.8168602 -7.4177237 -48.697292 -88.931465 -49.181736 -88.059967 -17.537855 147.14525
1180000000 -5.8282361 -10.777633 -48.597744 -89.665398 -49.094742 -91.237328 -17.529156 146.987
1181000000 -5.8505225 -14.195712 -48.597786 -92.199577 -48.735863 -91.435692 -17.525967 146.78127
1182000000 -5.8661494 -17.665937 -48.906639 -92.595001 -48.970936 -95.955635 -17.49465 146.67201
1183000000 -5.8850236 -21.134354 -49.031803 -95.541489 -48.7901 -96.279015 -17.512829 146.48145
1184000000 -5.9004507 -24.595242 -48.922081 -96.490044 -48.780991 -99.449059 -17.510017 146.3367
1185000000 -5.9259405 -28.02352 -48.771805 -100.41492 -48.769554 -99.941185 -17.488968 146.23039
1186000000 -5.948956 -31.507877 -48.58643 -101.01003 -48.936306 -100.133 -17.464403 146.13028
1187000000 -5.9599991 -34.995308 -48.895702 -102.39613 -48.940243 -106.15499 -17.469139 146.05624
1188000000 -5.9822068 -38.504704 -48.760792 -106.37392 -48.898094 -105.28014 -17.436382 146.01253
1189000000 -5.9987063 -42.01865 -49.326267 -108.34459 -48.58783 -108.33382 -17.428385 145.87764
1190000000 -6.0061975 -45.549397 -48.771259 -108.43314 -48.906368 -109.36372 -17.413942 145.82283
1191000000 -6.0313849 -49.070992 -48.932747 -111.60783 -48.744087 -110.81554 -17.419977 145.51332
1192000000 -6.0297837 -52.527798 -48.549419 -113.76131 -48.524548 -114.67577 -17.386875 145.37572
1193000000 -6.05162 -56.106354 -49.008698 -114.09052 -48.755421 -118.73167 -17.399605 145.26064
1194000000 -6.0649123 -59.688709 -48.85252 -114.95185 -48.656204 -118.07165 -17.373415 145.17323
1195000000 -6.0747147 -63.188225 -48.999176 -118.18478 -48.902988 -119.67563 -17.358427 145.12643
1196000000 -6.0832868 -66.749557 -49.117992 -122.05674 -48.915977 -120.3616 -17.350658 144.98036
1197000000 -6.0984335 -70.266518 -48.812664 -126.64866 -48.574387 -123.44137 -17.339409 144.89867
1198000000 -6.1107035 -73.815277 -48.642319 -128.43454 -49.067612 -126.62858 -17.343513 144.8965
1199000000 -6.1088004 -77.461182 -48.641888 -130.97794 -48.630814 -128.14365 -17.343037 144.63997
1200000000 -6.1205506 -81.051582 -48.908508 -129.94484 -48.484211 -128.88419 -17.330763 144.52425
1201000000 -6.1230125 -84.62001 -48.938759 -133.03145 -49.057968 -132.46045 -17.313034 144.37956
1202000000 -6.1285772 -88.167122 -48.755325 -135.56044 -48.673912 -134.18611 -17.290892 144.24792
1203000000 -6.1327372 -91.720459 -48.831074 -138.24379 -48.715492 -136.18294 -17.285442 144.20082
1204000000 -6.1344967 -95.287338 -48.84235 -141.3221 -48.697044 -137.93629 -17.283001 144.02164
1205000000 -6.1334419 -98.845009 -48.577812 -139.66463 -48.393009 -138.92619 -17.282053 143.89989
